  vcan0  300   [8]  CB D0 CB 15 B6 7E 86 45
  vcan0  300   [8]  36 09 11 20 F4 96 73 43
  vcan0  00000001   [3]  DE AD 01
  vcan0       300   [8]  9B D3 3A 26 FA 32 1A 4C
  vcan0  00000001   [3]  DE AD 01
  vcan0       300   [8]  AD 16 E3 54 1E A8 66 28
  vcan0  00000001   [3]  DE AD 01
  vcan0       300   [8]  7B 0D 56 71 CB 64 36 10
  vcan0  00000001   [3]  DE AD 01
  vcan0       300   [8]  49 A4 76 19 1F B3 A6 3A
  vcan0  00000001   [3]  DE AD 01
  vcan0       300   [8]  2C DC 52 31 C9 02 A7 4F
  vcan0  00000001   [3]  DE AD 01
  vcan0       300   [8]  B2 F9 4A 64 BE 27 23 20
  vcan0  00000001   [3]  DE AD 01
  vcan0       300   [8]  73 F5 E1 16 32 18 F2 0C
  vcan0  00000001   [3]  DE AD 01
  vcan0       300   [8]  23 1A 57 67 63 06 BC 6A
  vcan0  00000001   [3]  DE AD 01
  vcan0       300   [8]  B2 03 08 4D 80 53 29 1A
  vcan0  00000001   [3]  DE AD 01
  vcan0       300   [8]  83 5E E6 2A B1 36 72 45
  vcan0  00000001   [3]  DE AD 01
  vcan0       300   [8]  7F 97 AC 20 CA D4 B5 4E
  vcan0  00000001   [3]  DE AD 01
  vcan0       300   [8]  29 B2 CE 1F B3 70 BD 61
  vcan0  00000001   [3]  DE AD 01
  vcan0       300   [8]  CA 04 85 77 2D 99 24 43
  vcan0  00000001   [3]  DE AD 01
  vcan0       300   [8]  33 D8 32 38 95 D5 50 0D
  vcan0  00000001   [3]  DE AD 01
  vcan0       300   [8]  E3 17 AB 08 69 E1 43 58
  vcan0  00000001   [3]  DE AD 01
  vcan0       300   [8]  89 6C C4 50 7E EB E5 2E
  vcan0  00000001   [3]  DE AD 01
  vcan0       300   [8]  64 14 5E 24 37 83 A7 25
  vcan0  00000001   [3]  DE AD 01
  vcan0       300   [8]  9D 93 4C 57 DF 21 B4 15
  vcan0  00000001   [3]  DE AD 01
  vcan0       300   [8]  02 E8 DD 35 E6 37 C3 70
  vcan0  00000001   [3]  DE AD 01
  vcan0       300   [8]  FE D4 5A 50 2E C4 30 67
  vcan0  00000001   [3]  DE AD 01
  vcan0       300   [8]  AF 3A 6A 40 B0 CE A5 34
  vcan0  00000001   [3]  DE AD 01
  vcan0       300   [8]  ED EB 53 07 22 30 4C 57
  vcan0  00000001   [3]  DE AD 01
  vcan0       300   [8]  E2 E6 97 41 10 06 AB 6E
  vcan0  00000001   [3]  DE AD 01
  vcan0       300   [8]  85 36 08 42 94 EA 9F 0E
  vcan0  00000001   [3]  DE AD 01
  vcan0       300   [8]  90 59 D4 08 09 95 EE 6C
  vcan0  00000001   [3]  DE AD 01
  vcan0       300   [8]  45 21 12 54 0F F1 80 29
  vcan0  00000001   [3]  DE AD 01
  vcan0       300   [8]  D3 69 A4 3B 6E D3 E0 73
  vcan0  00000001   [3]  DE AD 01
  vcan0       300   [8]  C2 61 3E 0B 9D 6E 29 33
  vcan0  00000001   [3]  DE AD 01
  vcan0       300   [8]  9C 6C 05 37 F5 39 71 43
  vcan0  00000001   [3]  DE AD 01
  vcan0       300   [8]  33 44 7A 40 7F 84 B0 3F
  vcan0  00000001   [3]  DE AD 01
  vcan0       300   [8]  5F 1B B5 1B BC B0 3E 11
  vcan0  00000001   [3]  DE AD 01
  vcan0       300   [8]  FE 6F 96 6E C3 2F 13 40
  vcan0  00000001   [3]  DE AD 01
  vcan0       300   [8]  F3 33 E6 36 9B 03 E3 45
  vcan0  00000001   [3]  DE AD 01
  vcan0       300   [8]  A2 51 C7 55 F5 1B C4 6C
  vcan0  00000001   [3]  DE AD 01
  vcan0       300   [8]  81 3B A6 36 A0 26 22 26
  vcan0  00000001   [3]  DE AD 01
  vcan0       300   [8]  24 E0 F4 53 31 76 10 77
  vcan0  00000001   [3]  DE AD 01
  vcan0       300   [8]  50 F5 C7 5A 11 CC 48 5B
  vcan0  00000001   [3]  DE AD 01
  vcan0       300   [8]  53 A6 5C 4E 32 DC 5F 1C
  vcan0  00000001   [3]  DE AD 01
  vcan0       300   [8]  21 D2 F3 49 D9 DC 64 10
  vcan0  00000001   [3]  DE AD 01
  vcan0       300   [8]  C6 C6 FF 2A B1 2B C8 52
  vcan0  00000001   [3]  DE AD 01
  vcan0       300   [8]  E2 71 53 7D 0B E8 11 7F
  vcan0  00000001   [3]  DE AD 01
  vcan0       300   [8]  C1 1C 49 7C B5 DB F7 38
  vcan0  00000001   [3]  DE AD 01
  vcan0       300   [8]  79 BB F2 72 83 7E 87 07
  vcan0  00000001   [3]  DE AD 01
  vcan0       300   [8]  53 4A 21 6C 15 28 F8 29
  vcan0  00000001   [3]  DE AD 01
  vcan0       300   [8]  79 B8 F8 4A 86 8E 9B 2C
  vcan0  00000001   [3]  DE AD 01
  vcan0       300   [8]  95 AC A8 69 D8 D3 AD 66
  vcan0  00000001   [3]  DE AD 01
  vcan0       300   [8]  42 3F DA 3D 93 1C 3F 58
  vcan0  00000001   [3]  DE AD 01
  vcan0       300   [8]  9B 03 C1 26 36 73 C0 74
  vcan0  00000001   [3]  DE AD 01
  vcan0       300   [8]  2E 20 22 1E 3D 55 88 7C
  vcan0  00000001   [3]  DE AD 01
  vcan0       300   [8]  2B 8F 84 61 AF 5B C8 54
  vcan0  00000001   [3]  DE AD 01
  vcan0       300   [8]  DD 7B AA 22 4F 6F 79 35
  vcan0  00000001   [3]  DE AD 01
  vcan0       300   [8]  E0 D1 D8 4B 2D 71 72 7D
  vcan0  00000001   [3]  DE AD 01
  vcan0       300   [8]  60 3B C2 10 34 78 35 1A
  vcan0  00000001   [3]  DE AD 01
  vcan0       300   [8]  5F 4D D2 19 81 0D B6 5A
  vcan0  00000001   [3]  DE AD 01
  vcan0       300   [8]  0D 55 9A 2A 25 14 D2 44
  vcan0  00000001   [3]  DE AD 01
  vcan0       300   [8]  33 39 7E 2D EF C6 ED 27
  vcan0  00000001   [3]  DE AD 01
  vcan0       300   [8]  30 FC E3 43 F4 55 C7 29
  vcan0  00000001   [3]  DE AD 01
  vcan0       300   [8]  A4 A2 E5 60 A9 B7 D6 36
  vcan0  00000001   [3]  DE AD 01
  vcan0       300   [8]  77 D4 4E 31 F7 EC 06 4D
  vcan0  00000001   [3]  DE AD 01
  vcan0       300   [8]  BF DF CE 60 F0 8C 47 7C
  vcan0  00000001   [3]  DE AD 01
  vcan0       300   [8]  7D 7B A2 79 54 8C 77 4A
  vcan0  00000001   [3]  DE AD 01
  vcan0       300   [8]  C8 60 F5 62 C0 BA 7C 37
  vcan0  00000001   [3]  DE AD 01
  vcan0       300   [8]  E7 A8 B6 22 63 64 B6 09
  vcan0  00000001   [3]  DE AD 01
  vcan0       300   [8]  F6 2D 3D 2C 15 C9 D8 40
  vcan0  00000001   [3]  DE AD 01
  vcan0       300   [8]  A0 B9 3E 06 21 BD C1 0D
  vcan0  00000001   [3]  DE AD 01
  vcan0       300   [8]  C4 24 A1 15 7D 35 E9 28
  vcan0  00000001   [3]  DE AD 01
  vcan0       300   [8]  71 2C 3B 43 A5 F6 79 61
  vcan0  00000001   [3]  DE AD 01
  vcan0       300   [8]  AA A6 5B 26 D1 67 FD 53
  vcan0  00000001   [3]  DE AD 01
  vcan0       300   [8]  D9 6E AF 7B 09 F4 2D 40
  vcan0  00000001   [3]  DE AD 01
  vcan0       300   [8]  53 75 B3 2E E6 C3 49 26
  vcan0  00000001   [3]  DE AD 01
  vcan0       300   [8]  2E 08 00 05 86 AE 31 5C
  vcan0  00000001   [3]  DE AD 01
  vcan0       300   [8]  D5 8A 37 4E 5E 04 E4 48
  vcan0  00000001   [3]  DE AD 01
  vcan0       300   [8]  7A 04 F9 05 79 2D 1D 2F
  vcan0  00000001   [3]  DE AD 01
  vcan0       300   [8]  08 BC BA 7F F1 D8 47 37
  vcan0  00000001   [3]  DE AD 01
  vcan0       300   [8]  71 1A 24 7C C7 9B 89 60
  vcan0  00000001   [3]  DE AD 01
  vcan0       300   [8]  E2 65 8F 33 EE 95 C6 75
  vcan0  00000001   [3]  DE AD 01
  vcan0       300   [8]  1B 28 01 2B AA C6 84 16
  vcan0  00000001   [3]  DE AD 01
  vcan0       300   [8]  AE 50 43 2D 02 D1 B7 4D
  vcan0  00000001   [3]  DE AD 01
  vcan0       300   [8]  0E 2B 3B 20 A4 7E 80 59
  vcan0  00000001   [3]  DE AD 01
  vcan0       300   [8]  17 9A 90 0E AE E4 79 26
  vcan0  00000001   [3]  DE AD 01
  vcan0       300   [8]  C6 3B 42 67 DB BE 31 24
  vcan0  00000001   [3]  DE AD 01
  vcan0       300   [8]  2C 1A 63 4F 37 68 7D 2A
  vcan0  00000001   [3]  DE AD 01
  vcan0       300   [8]  80 B5 AB 05 D6 C0 BE 75
  vcan0  00000001   [3]  DE AD 01
  vcan0       300   [8]  08 D0 7A 7E 59 24 5B 01
  vcan0  00000001   [3]  DE AD 01
  vcan0       300   [8]  E0 B4 EC 35 5B 45 2E 2D
  vcan0  00000001   [3]  DE AD 01
  vcan0       300   [8]  3F E8 A4 27 0E BD EC 3A
  vcan0  00000001   [3]  DE AD 01
  vcan0       300   [8]  E1 F3 5F 09 14 73 DC 75
  vcan0  00000001   [3]  DE AD 01
  vcan0       300   [8]  6D C1 D0 03 5B F8 58 0F
  vcan0  00000001   [3]  DE AD 01
  vcan0       300   [8]  8E A0 F9 24 75 7D 8B 03
  vcan0  00000001   [3]  DE AD 01
  vcan0       300   [8]  4D D1 A0 46 FF BA 1D 21
  vcan0  00000001   [3]  DE AD 01
  vcan0       300   [8]  3C 19 15 64 2F 37 30 7A
  vcan0  00000001   [3]  DE AD 01
  vcan0       300   [8]  ED 50 E4 16 57 41 16 0F
  vcan0  00000001   [3]  DE AD 01
  vcan0       300   [8]  D9 FD B4 10 9C A1 27 44
  vcan0  00000001   [3]  DE AD 01
  vcan0       300   [8]  59 12 CE 5C E7 28 F0 30
  vcan0  00000001   [3]  DE AD 01
  vcan0       300   [8]  40 20 A8 1D 70 AC 5E 6B
  vcan0  00000001   [3]  DE AD 01
  vcan0       300   [8]  96 0D 6A 57 06 5C EA 04
  vcan0  00000001   [3]  DE AD 01
  vcan0       300   [8]  4B 6B 90 0F C2 27 CD 26
  vcan0  00000001   [3]  DE AD 01
  vcan0       300   [8]  3D C4 67 2F CC 20 3C 15
  vcan0  00000001   [3]  DE AD 01
  vcan0       300   [8]  98 E8 8B 1C 46 94 E2 2D
  vcan0  00000001   [3]  DE AD 01
  vcan0       300   [8]  25 45 97 16 78 9D 78 52
  vcan0  00000001   [3]  DE AD 01
  vcan0       300   [8]  A1 D9 10 5B 65 2D 3C 3E
  vcan0  00000001   [3]  DE AD 01
  vcan0       300   [8]  87 5A 65 0D 83 CD 70 64
  vcan0  00000001   [3]  DE AD 01
  vcan0       300   [8]  79 A0 18 34 F4 1B 36 11
  vcan0  00000001   [3]  DE AD 01
  vcan0       300   [8]  DE C5 C9 73 07 41 12 59
  vcan0  00000001   [3]  DE AD 01
  vcan0       300   [8]  69 99 C1 14 2B 97 6A 3A
  vcan0  00000001   [3]  DE AD 01
  vcan0       300   [8]  06 FC 2F 7A A5 B2 D6 78
  vcan0  00000001   [3]  DE AD 01
  vcan0       300   [8]  5A CE 9A 34 F4 4C 14 11
  vcan0  00000001   [3]  DE AD 01
  vcan0       300   [8]  FC F3 EC 07 34 CC 4F 45
  vcan0  00000001   [3]  DE AD 01
  vcan0       300   [8]  90 EE 3B 55 55 06 BB 64
  vcan0  00000001   [3]  DE AD 01
  vcan0       300   [8]  1B F5 3F 76 D0 0E E4 72
  vcan0  00000001   [3]  DE AD 01
  vcan0       300   [8]  C5 B2 19 50 B1 02 AA 4D
  vcan0  00000001   [3]  DE AD 01
  vcan0       300   [8]  D7 6A CE 77 10 1E AA 5F
  vcan0  00000001   [3]  DE AD 01
  vcan0       300   [8]  73 2A 77 74 14 2F 36 27
  vcan0  00000001   [3]  DE AD 01
  vcan0       300   [8]  DC 3E E6 74 0C 13 03 11
  vcan0  00000001   [3]  DE AD 01
  vcan0       300   [8]  5A C3 18 55 02 84 7D 0B
  vcan0  00000001   [3]  DE AD 01
  vcan0       300   [8]  84 B0 7B 63 FC 9C 29 30
  vcan0  00000001   [3]  DE AD 01
  vcan0       300   [8]  67 B1 B9 49 0B 0B E1 70
  vcan0  00000001   [3]  DE AD 01
  vcan0       300   [8]  7F 6A 9A 14 E0 51 D2 7D
  vcan0  00000001   [3]  DE AD 01
  vcan0       300   [8]  FF 26 17 02 5D 30 64 08
  vcan0  00000001   [3]  DE AD 01
  vcan0       300   [8]  E8 92 E4 56 68 C0 D8 16
  vcan0  00000001   [3]  DE AD 01
  vcan0       300   [8]  89 C7 CE 42 EE 8E 14 51
  vcan0  00000001   [3]  DE AD 01
  vcan0       300   [8]  0D 73 AF 0F E3 95 69 77
  vcan0  00000001   [3]  DE AD 01
  vcan0       300   [8]  E2 DB 28 62 09 67 9C 17
  vcan0  00000001   [3]  DE AD 01
  vcan0       300   [8]  17 62 B9 3C 72 CA 64 37
  vcan0  00000001   [3]  DE AD 01
  vcan0       300   [8]  5E 6D 57 7C 33 57 F9 32
  vcan0  00000001   [3]  DE AD 01
  vcan0       300   [8]  43 D9 48 2A 23 20 71 4C
  vcan0  00000001   [3]  DE AD 01
  vcan0       300   [8]  E4 59 A3 00 1A 44 17 22
  vcan0  00000001   [3]  DE AD 01
  vcan0       300   [8]  34 3E 1B 2C 58 84 1A 75
  vcan0  00000001   [3]  DE AD 01
  vcan0       300   [8]  2E 73 4D 49 10 7D 01 21
  vcan0  00000001   [3]  DE AD 01
  vcan0       300   [8]  64 97 1D 06 89 36 66 1E
  vcan0  00000001   [3]  DE AD 01
  vcan0       300   [8]  12 01 7F 2C E8 47 99 69
  vcan0  00000001   [3]  DE AD 01
  vcan0       300   [8]  85 D3 8F 4E 79 B2 38 76
  vcan0  00000001   [3]  DE AD 01
  vcan0       300   [8]  F4 52 7A 5A 04 3E 2A 63
  vcan0  00000001   [3]  DE AD 01
  vcan0       300   [8]  5A 04 0B 74 F3 79 91 5C
  vcan0  00000001   [3]  DE AD 01
  vcan0       300   [8]  61 6E 8E 6B 42 97 EF 4A
  vcan0  00000001   [3]  DE AD 01
  vcan0       300   [8]  5C 3A 6A 73 EA 35 5D 2E
  vcan0  00000001   [3]  DE AD 01
  vcan0       300   [8]  30 26 04 1C 69 AD 19 03
  vcan0  00000001   [3]  DE AD 01
  vcan0       300   [8]  CE CB C6 25 13 02 2D 7E
  vcan0  00000001   [3]  DE AD 01
  vcan0       300   [8]  73 14 B6 1A E5 2D 80 62
  vcan0  00000001   [3]  DE AD 01
  vcan0       300   [8]  85 CC 91 35 D1 81 0D 17
  vcan0  00000001   [3]  DE AD 01
  vcan0       300   [8]  18 85 79 15 C8 A5 DA 5F
  vcan0  00000001   [3]  DE AD 01
  vcan0       300   [8]  F5 A1 7E 63 FD DE 1C 16
  vcan0  00000001   [3]  DE AD 01
  vcan0       300   [8]  E2 E9 F1 01 29 E0 99 0F
  vcan0  00000001   [3]  DE AD 01
  vcan0       300   [8]  55 63 37 0B 11 5D 3F 4B
  vcan0  00000001   [3]  DE AD 01
  vcan0       300   [8]  39 5D 9B 30 B9 FA 54 11
  vcan0  00000001   [3]  DE AD 01
  vcan0       300   [8]  9A 93 A5 69 4C 5E 1A 5D
  vcan0  00000001   [3]  DE AD 01
  vcan0       300   [8]  A1 42 EE 7A 1F 67 35 38
  vcan0  00000001   [3]  DE AD 01
  vcan0       300   [8]  C5 10 53 53 95 95 68 55
  vcan0  00000001   [3]  DE AD 01
  vcan0       300   [8]  23 A5 5F 1B 1F 15 5E 47
  vcan0  00000001   [3]  DE AD 01
  vcan0       300   [8]  89 0F FA 31 84 13 EE 06
  vcan0  00000001   [3]  DE AD 01
  vcan0       300   [8]  61 AC 4D 12 E5 49 64 25
  vcan0  00000001   [3]  DE AD 01
  vcan0       300   [8]  6F 49 4B 35 92 D2 51 2E
  vcan0  00000001   [3]  DE AD 01
  vcan0       300   [8]  4E F7 7D 28 3D 15 12 5B
  vcan0  00000001   [3]  DE AD 01
  vcan0       300   [8]  A5 D4 7E 2C C1 0B 34 43
  vcan0  00000001   [3]  DE AD 01
  vcan0       300   [8]  22 43 92 3D 2A A1 10 62
  vcan0  00000001   [3]  DE AD 01
  vcan0       300   [8]  93 8D 41 5A 3B C8 0B 53
  vcan0  00000001   [3]  DE AD 01
  vcan0       300   [8]  F3 46 EB 41 88 2F C0 3D
  vcan0  00000001   [3]  DE AD 01
  vcan0       300   [8]  38 A7 28 69 D5 30 DD 43
  vcan0  00000001   [3]  DE AD 01
  vcan0       300   [8]  B1 0F 5A 4D 8D 0A 60 74
  vcan0  00000001   [3]  DE AD 01
  vcan0       300   [8]  E6 8D 1C 0F EA 6C F5 7D
  vcan0  00000001   [3]  DE AD 01
  vcan0       300   [8]  46 05 B5 05 80 21 C2 78
  vcan0  00000001   [3]  DE AD 01
  vcan0       300   [8]  36 CB 0F 5B E7 47 A3 00
  vcan0  00000001   [3]  DE AD 01
  vcan0       300   [8]  9F 88 F7 30 FC DB 62 2E
  vcan0  00000001   [3]  DE AD 01
  vcan0       300   [8]  7D DD 0B 56 C2 2D 57 4C
  vcan0  00000001   [3]  DE AD 01
  vcan0       300   [8]  1B F1 C0 75 06 ED 05 08
  vcan0  00000001   [3]  DE AD 01
  vcan0       300   [8]  47 41 45 53 7D 9D 0E 08
  vcan0  00000001   [3]  DE AD 01
  vcan0       300   [8]  EB 36 6A 2D B6 8A 90 08
  vcan0  00000001   [3]  DE AD 01
  vcan0       300   [8]  0F 70 60 36 39 2E E8 55
  vcan0  00000001   [3]  DE AD 01
  vcan0       300   [8]  F3 9F A2 63 B4 44 DF 62
  vcan0  00000001   [3]  DE AD 01
  vcan0       300   [8]  FB 39 1C 19 15 E3 34 21
  vcan0  00000001   [3]  DE AD 01
  vcan0       300   [8]  DE E5 EF 44 8E C7 5D 73
  vcan0  00000001   [3]  DE AD 01
  vcan0       300   [8]  50 AB 40 74 D1 2C DB 06
  vcan0  00000001   [3]  DE AD 01
  vcan0       300   [8]  16 F7 1D 31 88 52 69 5D
  vcan0  00000001   [3]  DE AD 01
  vcan0       300   [8]  A7 5D B8 4A C7 06 78 7E
  vcan0  00000001   [3]  DE AD 01
  vcan0       300   [8]  15 5D C9 51 8D EB D4 59
  vcan0  00000001   [3]  DE AD 01
  vcan0       300   [8]  B1 73 6D 7C 5B 62 7E 57
  vcan0  00000001   [3]  DE AD 01
  vcan0       300   [8]  0E 0D 97 52 E8 3E 7D 57
  vcan0  00000001   [3]  DE AD 01
  vcan0       300   [8]  43 AA 21 58 AD 95 8E 03
  vcan0  00000001   [3]  DE AD 01
  vcan0       300   [8]  E4 1A E0 05 C0 87 2D 2E
  vcan0  00000001   [3]  DE AD 01
  vcan0       300   [8]  70 C3 E5 4F FF 0B A1 7B
  vcan0  00000001   [3]  DE AD 01
  vcan0       300   [8]  C6 74 33 36 B7 04 2B 23
  vcan0  00000001   [3]  DE AD 01
  vcan0       300   [8]  7C A9 AF 03 B1 AB 9D 63
  vcan0  00000001   [3]  DE AD 01
  vcan0       300   [8]  6D 8F BB 2B 8B 19 10 3A
  vcan0  00000001   [3]  DE AD 01
  vcan0       300   [8]  EA D9 85 39 60 2F 5E 0F
  vcan0  00000001   [3]  DE AD 01
  vcan0       300   [8]  3F 5E EF 1C E5 13 A2 52
  vcan0  00000001   [3]  DE AD 01
  vcan0       300   [8]  75 12 93 30 1E 44 DF 61
  vcan0  00000001   [3]  DE AD 01
  vcan0       300   [8]  73 DB FF 45 C6 BD D3 24
  vcan0  00000001   [3]  DE AD 01
  vcan0       300   [8]  EF 70 BA 68 89 D2 1D 77
  vcan0  00000001   [3]  DE AD 01
  vcan0       300   [8]  4E 10 3D 02 96 CE 72 33
  vcan0  00000001   [3]  DE AD 01
  vcan0       300   [8]  50 D9 95 75 64 6D 06 54
  vcan0  00000001   [3]  DE AD 01
  vcan0       300   [8]  24 BA 47 0D 02 4D 03 72
  vcan0  00000001   [3]  DE AD 01
  vcan0       300   [8]  BF CF 84 2B 32 C7 DE 5F
  vcan0  00000001   [3]  DE AD 01
  vcan0       300   [8]  EA 8B 80 49 02 7A A6 03
  vcan0  00000001   [3]  DE AD 01
  vcan0       300   [8]  DF 5C 6D 63 CE A6 60 4F
  vcan0  00000001   [3]  DE AD 01
  vcan0       300   [8]  C2 01 D4 31 4F 20 53 33
  vcan0  00000001   [3]  DE AD 01
  vcan0       300   [8]  CD B2 01 4B 88 76 07 68
  vcan0  00000001   [3]  DE AD 01
  vcan0       300   [8]  06 25 7E 56 4A 5C B1 4E
  vcan0  00000001   [3]  DE AD 01
  vcan0       300   [8]  39 22 A5 4B 73 B4 39 02
  vcan0  00000001   [3]  DE AD 01
  vcan0       300   [8]  D5 75 C1 08 24 FC 2A 05
  vcan0  00000001   [3]  DE AD 01
  vcan0       300   [8]  D3 E3 97 11 15 D4 B0 25
  vcan0  00000001   [3]  DE AD 01
  vcan0       300   [8]  09 10 CD 57 49 F6 2A 42
  vcan0  00000001   [3]  DE AD 01
  vcan0       300   [8]  33 18 90 07 7D EB CC 1D
  vcan0  00000001   [3]  DE AD 01
  vcan0       300   [8]  0F B4 FE 66 22 89 4A 70
  vcan0  00000001   [3]  DE AD 01
  vcan0       300   [8]  06 BE EA 14 5D C4 3B 69
  vcan0  00000001   [3]  DE AD 01
  vcan0       300   [8]  B9 57 BD 23 57 97 80 0A
  vcan0  00000001   [3]  DE AD 01
  vcan0       300   [8]  C1 31 42 3D DD 11 05 31
  vcan0  00000001   [3]  DE AD 01
  vcan0       300   [8]  59 E4 83 7C 81 01 C7 68
  vcan0  00000001   [3]  DE AD 01
  vcan0       300   [8]  0F D9 E3 10 43 70 04 46
  vcan0  00000001   [3]  DE AD 01
  vcan0       300   [8]  83 7B 6D 6C EE 35 51 74
  vcan0  00000001   [3]  DE AD 01
  vcan0       300   [8]  11 17 65 15 46 7D 41 1E
  vcan0  00000001   [3]  DE AD 01
  vcan0       300   [8]  3E 56 A4 27 DE C9 66 60
  vcan0  00000001   [3]  DE AD 01
  vcan0       300   [8]  CE F3 48 06 44 7B 22 7E
  vcan0  00000001   [3]  DE AD 01
  vcan0       300   [8]  28 26 18 2F 08 16 EE 51
  vcan0  00000001   [3]  DE AD 01
  vcan0       300   [8]  B8 2F 5C 00 FE 9B D9 37
  vcan0  00000001   [3]  DE AD 01
  vcan0       300   [8]  2C 12 19 57 8B 13 F4 11
  vcan0  00000001   [3]  DE AD 01
  vcan0       300   [8]  13 70 8A 5D 35 22 E6 2E
  vcan0  00000001   [3]  DE AD 01
  vcan0       300   [8]  D4 09 1F 54 46 88 1A 65
  vcan0  00000001   [3]  DE AD 01
  vcan0       300   [8]  B2 0D B3 4C E3 BD 1D 3B
  vcan0  00000001   [3]  DE AD 01
  vcan0       300   [8]  68 11 65 55 B9 CB 9D 61
  vcan0  00000001   [3]  DE AD 01
  vcan0       300   [8]  41 82 59 24 21 69 22 79
  vcan0  00000001   [3]  DE AD 01
  vcan0       300   [8]  10 63 1E 6C 02 B4 9B 61
  vcan0  00000001   [3]  DE AD 01
  vcan0       300   [8]  FE 7A 27 2A 69 47 A2 68
  vcan0  00000001   [3]  DE AD 01
  vcan0       300   [8]  83 B5 62 4A 0D 54 0B 3B
  vcan0  00000001   [3]  DE AD 01
  vcan0       300   [8]  AC B7 A6 2E 07 31 D0 36
  vcan0  00000001   [3]  DE AD 01
  vcan0       300   [8]  FC 89 5C 2F BD CE 0B 44
  vcan0  00000001   [3]  DE AD 01
  vcan0       300   [8]  4D AE 11 55 3A E0 00 57
  vcan0  00000001   [3]  DE AD 01
  vcan0       300   [8]  9B 98 72 24 1B A2 5A 5B
  vcan0  00000001   [3]  DE AD 01
  vcan0       300   [8]  7E 5B 23 55 C4 BE 8A 53
  vcan0  00000001   [3]  DE AD 01
  vcan0       300   [8]  23 B8 48 2D 36 8B 7F 55
  vcan0  00000001   [3]  DE AD 01
  vcan0       300   [8]  C2 5A 64 0B 4F CA 61 04
  vcan0  00000001   [3]  DE AD 01
  vcan0       300   [8]  C2 9E 73 67 D5 CA EE 68
  vcan0  00000001   [3]  DE AD 01
  vcan0       300   [8]  85 EC 47 33 96 A8 92 3B
  vcan0  00000001   [3]  DE AD 01
  vcan0       300   [8]  1B 53 09 4E 37 FA FA 7F
  vcan0  00000001   [3]  DE AD 01
  vcan0       300   [8]  7A 66 B0 76 83 64 6E 23
  vcan0  00000001   [3]  DE AD 01
  vcan0       300   [8]  F0 C5 98 61 BB E8 09 1B
  vcan0  00000001   [3]  DE AD 01
  vcan0       300   [8]  A5 CD 90 1C 00 29 B7 4D
  vcan0  00000001   [3]  DE AD 01
  vcan0       300   [8]  BD 9C A5 7C A3 48 B8 46
  vcan0  00000001   [3]  DE AD 01
  vcan0       300   [8]  69 70 59 36 41 52 08 47
  vcan0  00000001   [3]  DE AD 01
  vcan0       300   [8]  B1 9C C3 01 15 28 00 65
  vcan0  00000001   [3]  DE AD 01
  vcan0       300   [8]  48 83 D8 7D AD 26 20 31
  vcan0  00000001   [3]  DE AD 01
  vcan0       300   [8]  D2 F6 0B 29 95 31 EA 52
  vcan0  00000001   [3]  DE AD 01
  vcan0       300   [8]  E7 06 21 08 6E 8F 7E 4D
  vcan0  00000001   [3]  DE AD 01
  vcan0       300   [8]  B0 D3 44 2E 65 62 44 5D
  vcan0  00000001   [3]  DE AD 01
  vcan0       300   [8]  32 4E 09 21 D4 8B 8D 5B
  vcan0  00000001   [3]  DE AD 01
  vcan0       300   [8]  9C ED C3 32 F4 A8 6D 2C
  vcan0  00000001   [3]  DE AD 01
  vcan0       300   [8]  23 56 EF 5F 5E 8C 37 1A
  vcan0  00000001   [3]  DE AD 01
  vcan0       300   [8]  C9 73 5C 15 A8 42 37 13
  vcan0  00000001   [3]  DE AD 01
  vcan0       300   [8]  F4 34 CA 55 E4 C6 65 63
  vcan0  00000001   [3]  DE AD 01
  vcan0       300   [8]  E0 3C 32 13 6E 9B 7A 4C
  vcan0  00000001   [3]  DE AD 01
  vcan0       300   [8]  67 2B D4 06 D0 02 CB 74
  vcan0  00000001   [3]  DE AD 01
  vcan0       300   [8]  29 84 84 67 0C F9 64 23
  vcan0  00000001   [3]  DE AD 01
  vcan0       300   [8]  D1 2B 82 42 E7 20 2A 64
  vcan0  00000001   [3]  DE AD 01
  vcan0       300   [8]  B0 41 1D 6A 3A 9C DB 78
  vcan0  00000001   [3]  DE AD 01
  vcan0       300   [8]  28 73 32 2B 61 DE E0 6B
  vcan0  00000001   [3]  DE AD 01
  vcan0       300   [8]  50 C4 DB 5D 70 F6 0A 29
  vcan0  00000001   [3]  DE AD 01
  vcan0       300   [8]  0E 05 01 1D 22 BB E7 06
  vcan0  00000001   [3]  DE AD 01
  vcan0       300   [8]  05 28 F5 7B F5 0B 22 25
  vcan0  00000001   [3]  DE AD 01
  vcan0       300   [8]  90 4A 66 54 B5 FB 39 2A
  vcan0  00000001   [3]  DE AD 01
  vcan0       300   [8]  5A 6E 66 02 C2 98 6F 75
  vcan0  00000001   [3]  DE AD 01
  vcan0       300   [8]  89 87 C7 05 F6 5B 2A 35
  vcan0  00000001   [3]  DE AD 01
  vcan0       300   [8]  B6 41 DD 21 AD DD B6 65
  vcan0  00000001   [3]  DE AD 01
  vcan0       300   [8]  54 E8 61 4F 7F B5 39 37
  vcan0  00000001   [3]  DE AD 01
  vcan0       300   [8]  55 20 EE 78 49 1D 2C 25
  vcan0  00000001   [3]  DE AD 01
  vcan0       300   [8]  63 7C 9F 1A 35 5D 20 0C
  vcan0  00000001   [3]  DE AD 01
  vcan0       300   [8]  B7 B8 A6 71 CB A7 73 21
  vcan0  00000001   [3]  DE AD 01
  vcan0       300   [8]  06 60 EB 00 E1 3C 2B 59
  vcan0  00000001   [3]  DE AD 01
  vcan0       300   [8]  D7 A0 D8 44 D7 8B 6D 43
  vcan0  00000001   [3]  DE AD 01
  vcan0       300   [8]  C8 5D 55 3D 87 E2 F5 2E
  vcan0  00000001   [3]  DE AD 01
  vcan0       300   [8]  11 28 49 3C F0 D0 87 68
  vcan0  00000001   [3]  DE AD 01
  vcan0       300   [8]  E8 C0 D6 1A 61 EC 24 1A
  vcan0  00000001   [3]  DE AD 01
  vcan0       300   [8]  60 C7 92 11 F6 C5 D7 37
  vcan0  00000001   [3]  DE AD 01
  vcan0       300   [8]  84 A7 0C 21 65 EF 87 0D
  vcan0  00000001   [3]  DE AD 01
  vcan0       300   [8]  EB D1 F9 5C 14 F2 72 75
  vcan0  00000001   [3]  DE AD 01
  vcan0       300   [8]  1A EB C1 37 46 40 60 5F
  vcan0  00000001   [3]  DE AD 01
  vcan0       300   [8]  D7 8A E2 6A A4 72 89 3D
  vcan0  00000001   [3]  DE AD 01
  vcan0       300   [8]  3C 9C 8A 14 8D CC BF 0C
  vcan0  00000001   [3]  DE AD 01
  vcan0       300   [8]  51 50 40 23 91 84 EC 63
  vcan0  00000001   [3]  DE AD 01
  vcan0       300   [8]  0D 82 F9 43 A6 70 2E 1C
  vcan0  00000001   [3]  DE AD 01
  vcan0       300   [8]  DA A1 18 09 70 FE 98 5E
  vcan0  00000001   [3]  DE AD 01
  vcan0       300   [8]  DC CD 4E 28 91 5A BF 7A
  vcan0  00000001   [3]  DE AD 01
  vcan0       300   [8]  3B A6 0C 00 E2 2D 3A 29
  vcan0  00000001   [3]  DE AD 01
  vcan0       300   [8]  72 97 EA 53 13 47 E5 44
  vcan0  00000001   [3]  DE AD 01
  vcan0       300   [8]  B9 B9 A7 6C 3A F5 3F 11
  vcan0  00000001   [3]  DE AD 01
  vcan0       300   [8]  9A 29 DB 73 CA E1 F0 28
  vcan0  00000001   [3]  DE AD 01
  vcan0       300   [8]  2A C6 C7 79 83 EA B1 0E
  vcan0  00000001   [3]  DE AD 01
  vcan0       300   [8]  2C CE 15 43 8A 8D 5A 0B
  vcan0  00000001   [3]  DE AD 01
  vcan0       300   [8]  79 B0 89 46 B0 75 22 64
  vcan0  00000001   [3]  DE AD 01
  vcan0       300   [8]  EF 7C E2 18 65 82 83 23
  vcan0  00000001   [3]  DE AD 01
  vcan0       300   [8]  C4 67 95 59 0A 68 A4 50
  vcan0  00000001   [3]  DE AD 01
  vcan0       300   [8]  AB C2 E3 02 9B F2 77 44
  vcan0  00000001   [3]  DE AD 01
  vcan0       300   [8]  AE DA 2D 0E E7 5E 6E 17
  vcan0  00000001   [3]  DE AD 01
  vcan0       300   [8]  29 BF 37 51 FF 2A 6E 31
  vcan0  00000001   [3]  DE AD 01
  vcan0       300   [8]  78 E3 5A 7B 36 41 31 15
  vcan0  00000001   [3]  DE AD 01
  vcan0       300   [8]  A5 9B 9C 4D 52 85 73 04
  vcan0  00000001   [3]  DE AD 01
  vcan0       300   [8]  A6 3F CA 73 81 69 EB 75
  vcan0  00000001   [3]  DE AD 01
  vcan0       300   [8]  E4 DF 32 7F E2 E5 D6 73
  vcan0  00000001   [3]  DE AD 01
  vcan0       300   [8]  63 97 25 1F 56 77 1D 53
  vcan0  00000001   [3]  DE AD 01
  vcan0       300   [8]  F5 2C BC 38 1C 51 CD 0B
  vcan0  00000001   [3]  DE AD 01
  vcan0       300   [8]  91 6C 5D 64 8F 56 97 2C
  vcan0  00000001   [3]  DE AD 01
  vcan0       300   [8]  E7 32 BE 34 BB 32 25 5E
  vcan0  00000001   [3]  DE AD 01
  vcan0       300   [8]  12 41 49 3B 13 01 D4 77
  vcan0  00000001   [3]  DE AD 01
  vcan0       300   [8]  46 C0 7F 69 8C F1 D2 01
  vcan0  00000001   [3]  DE AD 01
  vcan0       300   [8]  C3 76 F6 5B 35 3D 62 02
  vcan0  00000001   [3]  DE AD 01
  vcan0       300   [8]  F1 73 56 25 87 DE 8B 35
  vcan0  00000001   [3]  DE AD 01
  vcan0       300   [8]  3F A5 06 53 9C 36 3A 28
  vcan0  00000001   [3]  DE AD 01
  vcan0       300   [8]  23 D1 03 7A ED 7F 34 61
  vcan0  00000001   [3]  DE AD 01
  vcan0       300   [8]  83 95 A8 3F 4C 90 3B 4B
  vcan0  00000001   [3]  DE AD 01
  vcan0       300   [8]  EC AA A2 12 FC 78 03 3B
  vcan0  00000001   [3]  DE AD 01
  vcan0       300   [8]  82 D1 6C 60 92 46 3F 60
  vcan0  00000001   [3]  DE AD 01
  vcan0       300   [8]  4E FE 76 3F 28 11 37 54
  vcan0  00000001   [3]  DE AD 01
  vcan0       300   [8]  13 B0 2A 56 32 DE A9 3E
  vcan0  00000001   [3]  DE AD 01
  vcan0       300   [8]  0A F7 0D 48 77 47 50 75
  vcan0  00000001   [3]  DE AD 01
  vcan0       300   [8]  89 55 C7 11 FF 23 CA 00
  vcan0  00000001   [3]  DE AD 01
  vcan0       300   [8]  93 98 1D 01 1A C2 24 76
  vcan0  00000001   [3]  DE AD 01
  vcan0       300   [8]  8F 7A 61 2D 7A CB DB 35
  vcan0  00000001   [3]  DE AD 01
  vcan0       300   [8]  D5 F4 49 54 A1 BB AA 68
  vcan0  00000001   [3]  DE AD 01
  vcan0       300   [8]  8D CC AF 2D 1B B5 C9 3D
  vcan0  00000001   [3]  DE AD 01
  vcan0       300   [8]  2D AD 7D 6A 50 43 A6 09
  vcan0  00000001   [3]  DE AD 01
  vcan0       300   [8]  51 F2 2B 40 1E 21 D4 0F
  vcan0  00000001   [3]  DE AD 01
  vcan0       300   [8]  D8 21 32 3F 90 97 32 13
  vcan0  00000001   [3]  DE AD 01
  vcan0       300   [8]  BA 57 0E 38 FB F2 35 39
  vcan0  00000001   [3]  DE AD 01
  vcan0       300   [8]  7E 17 67 74 3E ED B6 77
  vcan0  00000001   [3]  DE AD 01
  vcan0       300   [8]  47 83 71 04 6A C2 09 07
  vcan0  00000001   [3]  DE AD 01
  vcan0       300   [8]  3A 66 BA 32 C9 54 DE 64
  vcan0  00000001   [3]  DE AD 01
  vcan0       300   [8]  FC 08 49 67 88 64 31 72
  vcan0  00000001   [3]  DE AD 01
  vcan0       300   [8]  F1 65 15 39 10 B9 73 3D
  vcan0  00000001   [3]  DE AD 01
  vcan0       300   [8]  BB 42 DB 30 FC 5C 23 01
  vcan0  00000001   [3]  DE AD 01
  vcan0       300   [8]  87 00 C4 32 44 98 A2 42
  vcan0  00000001   [3]  DE AD 01
  vcan0       300   [8]  FB 80 ED 01 1A 99 E1 33
  vcan0  00000001   [3]  DE AD 01
  vcan0       300   [8]  5E 5A C7 38 8A FB 4E 2F
  vcan0  00000001   [3]  DE AD 01
  vcan0       300   [8]  95 64 BD 69 33 4F 11 0D
  vcan0  00000001   [3]  DE AD 01
  vcan0       300   [8]  2C B7 F9 17 22 31 6D 17
  vcan0  00000001   [3]  DE AD 01
  vcan0       300   [8]  4F 04 DB 4A 59 64 77 02
  vcan0  00000001   [3]  DE AD 01
  vcan0       300   [8]  73 74 13 21 A0 F6 06 0B
  vcan0  00000001   [3]  DE AD 01
  vcan0       300   [8]  78 85 4B 12 4B 96 45 60
  vcan0  00000001   [3]  DE AD 01
  vcan0       300   [8]  30 8E 39 1E 32 DD 59 4A
  vcan0  00000001   [3]  DE AD 01
  vcan0       300   [8]  46 89 7B 19 AE A5 A0 12
  vcan0  00000001   [3]  DE AD 01
  vcan0       300   [8]  70 CA 10 42 8D 0C ED 1D
  vcan0  00000001   [3]  DE AD 01
  vcan0       300   [8]  19 68 AA 19 AA 30 CB 74
  vcan0  00000001   [3]  DE AD 01
  vcan0       300   [8]  56 61 CB 02 15 71 F3 00
  vcan0  00000001   [3]  DE AD 01
  vcan0       300   [8]  33 95 FC 66 47 C7 E0 3B
  vcan0  00000001   [3]  DE AD 01
  vcan0       300   [8]  25 2A 67 3E EE D7 D7 17
  vcan0  00000001   [3]  DE AD 01
  vcan0       300   [8]  43 24 04 3D AC 2A 2B 71
  vcan0  00000001   [3]  DE AD 01
  vcan0       300   [8]  32 70 7A 5A 3F A5 F1 3E
  vcan0  00000001   [3]  DE AD 01
  vcan0       300   [8]  C7 C3 0C 25 90 CA 41 13
  vcan0  00000001   [3]  DE AD 01
  vcan0       300   [8]  C9 A0 40 6E 5C 28 CA 0E
  vcan0  00000001   [3]  DE AD 01
  vcan0       300   [8]  C3 19 53 20 F5 57 3A 06
  vcan0  00000001   [3]  DE AD 01
  vcan0       300   [8]  7E 59 37 26 12 1E 2E 6B
  vcan0  00000001   [3]  DE AD 01
  vcan0       300   [8]  4F BC B1 08 F1 CD 4A 47
  vcan0  00000001   [3]  DE AD 01
  vcan0       300   [8]  B2 14 35 76 C7 41 FD 1A
  vcan0  00000001   [3]  DE AD 01
  vcan0       300   [8]  3C 64 90 27 E3 A2 6E 14
  vcan0  00000001   [3]  DE AD 01
  vcan0       300   [8]  F9 1E 57 65 82 ED 0B 41
  vcan0  00000001   [3]  DE AD 01
  vcan0       300   [8]  91 48 0F 27 6A E9 67 27
  vcan0  00000001   [3]  DE AD 01
  vcan0       300   [8]  0F FA F8 5E AA B0 B9 40
  vcan0  00000001   [3]  DE AD 01
  vcan0       300   [8]  14 1A 33 1C 65 5B C4 61
  vcan0  00000001   [3]  DE AD 01
  vcan0       300   [8]  C0 21 AD 41 47 AF 2F 03
  vcan0  00000001   [3]  DE AD 01
